<Qucs Dataset 1.0.0>
<indep TIME 385>
0.000000000000e+00
2.000000000000e-10
6.000000000000e-10
1.400000000000e-09
3.000000000000e-09
6.200000000000e-09
1.020000000000e-08
1.420000000000e-08
1.820000000000e-08
2.220000000000e-08
2.620000000000e-08
3.020000000000e-08
3.420000000000e-08
3.820000000000e-08
4.000000000000e-08
4.010000000000e-08
4.018861192511e-08
4.036583577532e-08
4.072028347574e-08
4.100000000000e-08
4.107088954008e-08
4.121266862025e-08
4.149622678059e-08
4.206334310126e-08
4.319757574261e-08
4.433180838396e-08
4.546604102531e-08
4.660027366665e-08
4.886873894935e-08
5.113720423204e-08
5.567413479743e-08
6.021106536282e-08
6.474799592821e-08
6.928492649361e-08
7.295079978904e-08
7.661667308448e-08
8.028254637991e-08
8.761429297078e-08
1.022777861525e-07
1.316047725160e-07
1.902587452430e-07
3.075666906969e-07
4.248746361508e-07
6.594905270586e-07
8.941064179665e-07
1.128722308874e-06
1.363338199782e-06
1.597954090690e-06
2.067185872506e-06
3.005649436137e-06
3.944112999768e-06
4.882576563400e-06
5.821040127031e-06
7.697967254294e-06
9.574894381556e-06
1.332874863608e-05
2.083645714513e-05
3.585187416323e-05
6.588270819944e-05
1.259443762718e-04
2.460677124167e-04
4.863143847063e-04
7.863143847063e-04
1.086314384706e-03
1.386314384706e-03
1.686314384706e-03
1.986314384706e-03
2.000041000000e-03
2.000041100000e-03
2.000041188687e-03
2.000041366060e-03
2.000041720807e-03
2.000042000000e-03
2.000042070949e-03
2.000042212848e-03
2.000042496645e-03
2.000043064240e-03
2.000044199429e-03
2.000046469807e-03
2.000051010564e-03
2.000060092077e-03
2.000078255102e-03
2.000087336615e-03
2.000090707610e-03
2.000091155946e-03
2.000092052619e-03
2.000092949292e-03
2.000093845965e-03
2.000094742639e-03
2.000096535985e-03
2.000098329331e-03
2.000099869120e-03
2.000101408909e-03
2.000102948698e-03
2.000104201548e-03
2.000105454398e-03
2.000106707248e-03
2.000109212948e-03
2.000111718648e-03
2.000112000662e-03
2.000112282676e-03
2.000112846705e-03
2.000113410734e-03
2.000114538791e-03
2.000116794905e-03
2.000119051020e-03
2.000123563249e-03
2.000128075478e-03
2.000137099937e-03
2.000146124395e-03
2.000164173311e-03
2.000166253407e-03
2.000166952925e-03
2.000168351962e-03
2.000169750998e-03
2.000171150034e-03
2.000172549070e-03
2.000175347143e-03
2.000180943288e-03
2.000186539433e-03
2.000192135578e-03
2.000203327867e-03
2.000225712447e-03
2.000270481606e-03
2.000315250766e-03
2.000360019925e-03
2.000404789084e-03
2.000449558244e-03
2.000494327403e-03
2.000583865721e-03
2.000762942359e-03
2.000942018996e-03
2.001121095633e-03
2.001300172270e-03
2.001658325545e-03
2.002374632093e-03
2.003019307987e-03
2.003663983881e-03
2.004308659775e-03
2.004953335669e-03
2.005598011563e-03
2.006242687457e-03
2.006887363351e-03
2.007532039245e-03
2.007925458142e-03
2.007974635504e-03
2.008072990228e-03
2.008269699676e-03
2.008446738180e-03
2.008508605910e-03
2.008513049733e-03
2.008517493555e-03
2.008521937377e-03
2.008526381199e-03
2.008535268843e-03
2.008544156487e-03
2.008561931775e-03
2.008579707064e-03
2.008615257640e-03
2.008617479551e-03
2.008621923373e-03
2.008623034329e-03
2.008624145285e-03
2.008624251085e-03
2.008624462687e-03
2.008624674289e-03
2.008624885891e-03
2.008625097493e-03
2.008625309095e-03
2.008625732298e-03
2.008626155502e-03
2.008627001910e-03
2.008627848317e-03
2.008628694724e-03
2.008629541132e-03
2.008630387539e-03
2.008631233947e-03
2.008632080354e-03
2.008632210012e-03
2.008632339670e-03
2.008632598985e-03
2.008632858301e-03
2.008633376932e-03
2.008634414194e-03
2.008636488718e-03
2.008640637766e-03
2.008648935863e-03
2.008657233960e-03
2.008664702248e-03
2.008672170535e-03
2.008679638822e-03
2.008688823813e-03
2.008691947572e-03
2.008695071332e-03
2.008697791105e-03
2.008700510878e-03
2.008705950423e-03
2.008706867219e-03
2.008707784014e-03
2.008708700809e-03
2.008710534400e-03
2.008712367990e-03
2.008714201581e-03
2.008717868762e-03
2.008721535943e-03
2.008728870305e-03
2.008736204667e-03
2.008750873391e-03
2.008780210839e-03
2.008838885735e-03
2.008853554459e-03
2.008855120908e-03
2.008858253807e-03
2.008861386707e-03
2.008867652505e-03
2.008873918303e-03
2.008880184101e-03
2.008886449899e-03
2.008892715697e-03
2.008905247294e-03
2.008917778890e-03
2.008930310486e-03
2.008955373679e-03
2.008980436871e-03
2.008989241306e-03
2.008993229504e-03
2.008997217702e-03
2.009001205901e-03
2.009005194099e-03
2.009009182298e-03
2.009017158694e-03
2.009025135091e-03
2.009041087885e-03
2.009057040678e-03
2.009088946265e-03
2.009120851852e-03
2.009184663026e-03
2.009248474200e-03
2.009376096547e-03
2.009505003287e-03
2.009526336098e-03
2.009569001720e-03
2.009607400779e-03
2.009645799838e-03
2.009684198897e-03
2.009722597957e-03
2.009760997016e-03
2.009799396075e-03
2.009876194194e-03
2.009952992313e-03
2.010106588550e-03
2.010260184787e-03
2.010567377261e-03
2.010874569736e-03
2.011488954685e-03
2.012103339633e-03
2.013332109531e-03
2.014560879429e-03
2.015789649326e-03
2.018247189122e-03
2.020704728917e-03
2.023162268712e-03
2.028077348303e-03
2.032992427893e-03
2.042822587074e-03
2.052652746255e-03
2.072313064617e-03
2.091973382979e-03
2.131294019703e-03
2.170614656428e-03
2.175529736018e-03
2.185359895199e-03
2.195047955853e-03
2.201331564338e-03
2.201986399355e-03
2.203296069388e-03
2.203623486896e-03
2.204278321913e-03
2.205587991946e-03
2.205751700700e-03
2.206079118208e-03
2.206160972585e-03
2.206324681340e-03
2.206338717492e-03
2.206366789798e-03
2.206422934409e-03
2.206436970562e-03
2.206465042867e-03
2.206521187478e-03
2.206577332089e-03
2.206584086103e-03
2.206590840116e-03
2.206597594130e-03
2.206611102157e-03
2.206638118211e-03
2.206641239308e-03
2.206647481502e-03
2.206659965889e-03
2.206661896498e-03
2.206663827107e-03
2.206667688325e-03
2.206671549542e-03
2.206679271978e-03
2.206686222169e-03
2.206693172361e-03
2.206700122553e-03
2.206714022936e-03
2.206727923320e-03
2.206741823703e-03
2.206769624470e-03
2.206797425237e-03
2.206825226004e-03
2.206850246694e-03
2.206872765316e-03
2.206876046569e-03
2.206879327822e-03
2.206885890328e-03
2.206892452834e-03
2.206899015340e-03
2.206912140352e-03
2.206925265364e-03
2.206951515388e-03
2.207004015436e-03
2.207109015532e-03
2.207214015628e-03
2.207424015820e-03
2.207634016012e-03
2.208054016397e-03
2.208474016781e-03
2.209314017550e-03
2.210994019088e-03
2.214354022163e-03
2.216034023701e-03
2.219394026776e-03
2.220234027545e-03
2.220654027930e-03
2.220864028122e-03
2.220969028218e-03
2.220975590724e-03
2.220977312184e-03
2.220980755104e-03
2.220984198025e-03
2.220987640945e-03
2.220994526785e-03
2.221001412625e-03
2.221008298466e-03
2.221015184306e-03
2.221022070146e-03
2.221028955987e-03
2.221042727667e-03
2.221060171328e-03
2.221077614990e-03
2.221079310028e-03
2.221081005066e-03
2.221084395143e-03
2.221087785220e-03
2.221091175297e-03
2.221097955450e-03
2.221104735604e-03
2.221118295911e-03
2.221131856218e-03
2.221158976832e-03
2.221213218061e-03
2.221267459290e-03
2.221321700518e-03
2.221430182975e-03
2.221538665432e-03
2.221755630347e-03
2.222189560175e-03
2.223057419832e-03
2.224793139146e-03
2.228264577774e-03
2.235207455030e-03
2.242150332287e-03
2.256036086799e-03
2.283807595824e-03
2.311579104848e-03
2.339350613873e-03
2.367122122898e-03
2.422665140947e-03
2.533751177046e-03
2.644837213145e-03
2.755923249244e-03
2.978095321441e-03
3.000000000000e-03
</indep>
<dep tran.V(FILTERED) TIME>
4.818587698700e-10
4.818589205600e-10
4.818586183062e-10
4.818585712669e-10
4.818596866388e-10
4.818587555794e-10
4.818586618259e-10
4.818594380385e-10
4.818594166823e-10
4.818590353819e-10
4.818589105690e-10
4.818593850271e-10
4.818581692719e-10
4.818584258783e-10
4.818591669842e-10
3.478602716778e-03
8.551841642017e-03
2.152941872204e-02
5.642197759949e-02
8.551885621364e-02
9.084187689328e-02
9.669539621048e-02
1.016231247711e-01
9.485285521024e-02
7.158120736053e-02
-1.803440317017e-02
-1.900237522878e-01
-3.883048682896e-01
-8.011948695527e-01
-1.217220653072e+00
-1.998014505802e+00
-2.672275271998e+00
-3.208674052170e+00
-3.377681108271e+00
-3.386588374216e+00
-3.384942143046e+00
-3.380120402303e+00
-3.365455238214e+00
-3.328471963939e+00
-3.244734558057e+00
-3.071576332738e+00
-2.741160264240e+00
-2.442474412592e+00
-1.935418169450e+00
-1.532950136091e+00
-1.214105183997e+00
-9.616714364994e-01
-7.617059702884e-01
-4.748930708700e-01
-1.739571080772e-01
-6.377967127573e-02
-2.335637161035e-02
-8.585845291881e-03
-3.076871892238e-04
-2.946900614997e-05
2.081391852745e-05
-1.925004110080e-05
1.874545724741e-05
-1.853951975644e-05
1.844798907702e-05
-1.840306877111e-05
1.838260287785e-05
-1.836473550195e-05
1.834902117416e-05
-1.833160200075e-05
1.831632986309e-05
-1.829934694349e-05
1.799703652981e-05
-1.299690175314e-04
-3.527965306753e-04
-9.506077443262e-04
-2.793160207985e-03
-4.636143837905e-03
-5.053574040594e-03
-5.655192190059e-03
-6.523176256267e-03
-7.037141691732e-03
-6.811927909374e-03
-6.011013558613e-03
-4.306940686648e-03
9.382707574172e-05
1.721902977032e-02
4.242369909884e-02
7.711625933161e-02
8.975095431098e-02
1.701535435791e-01
3.981955742259e-01
6.325153542785e-01
8.807517045158e-01
1.292486042535e+00
1.426688256070e+00
1.435762509634e+00
1.462335407093e+00
1.472199529347e+00
1.479872601269e+00
1.484102167656e+00
1.487297916137e+00
1.490482389548e+00
1.491098668092e+00
1.490971229230e+00
1.490796566244e+00
1.490270470908e+00
1.489661078153e+00
1.488447407609e+00
1.486076760084e+00
1.483733153169e+00
1.478988556854e+00
1.474179383948e+00
1.464504987640e+00
1.454821397517e+00
1.435574480224e+00
1.433390308482e+00
1.432671003599e+00
1.431502688091e+00
1.430376465441e+00
1.428846230031e+00
1.427315807727e+00
1.424492856336e+00
1.418994227140e+00
1.413654715864e+00
1.408303389403e+00
1.397739366376e+00
1.376905692683e+00
1.336626861612e+00
1.298070550293e+00
1.260892047970e+00
1.222887976296e+00
1.187299715570e+00
1.154151459933e+00
1.092823435787e+00
9.864675461860e-01
8.975428583493e-01
8.228988090327e-01
7.593400132991e-01
6.525888502739e-01
4.019187824609e-01
2.924641593553e-01
1.755846683049e-01
1.380917463115e-01
7.377866369265e-02
6.777884949799e-02
2.824968249864e-02
3.551106337696e-02
8.125515680642e-03
1.383609771420e-02
1.356970077782e-02
1.280053070490e-02
1.131987534262e-02
1.024178920688e-02
1.121622544568e-02
1.688494091969e-02
2.013749975575e-02
2.066768641152e-02
2.147136985616e-02
2.100825205661e-02
2.030664459559e-02
1.848006080289e-02
1.713591011526e-02
1.476206647752e-02
1.465643166952e-02
1.443818918269e-02
1.437948869505e-02
1.432173175973e-02
1.431636520282e-02
1.430568400974e-02
1.429506467708e-02
1.428446368788e-02
1.427388021614e-02
1.426331698351e-02
1.424226729161e-02
1.422132741246e-02
1.417977022897e-02
1.413861945674e-02
1.409785752664e-02
1.405748194846e-02
1.401749369291e-02
1.397789338021e-02
1.393868049217e-02
1.393271245920e-02
1.392674893749e-02
1.391484896960e-02
1.390298511843e-02
1.387936586014e-02
1.383256014685e-02
1.374066183454e-02
1.356353396681e-02
1.323407317813e-02
1.293302820350e-02
1.268358544971e-02
1.245501323047e-02
1.224616771490e-02
1.202477706129e-02
1.195017693584e-02
1.187659419950e-02
1.181411662958e-02
1.175246067475e-02
1.163507975529e-02
1.161739486897e-02
1.159990953637e-02
1.158209421589e-02
1.154558052461e-02
1.150984906514e-02
1.147504469983e-02
1.140801409247e-02
1.134418639334e-02
1.122451737266e-02
1.111410455292e-02
1.091547575603e-02
1.058519317539e-02
1.008693378747e-02
9.988348058270e-03
9.977769610655e-03
9.956606507304e-03
9.934931632996e-03
9.889895657515e-03
9.843648482722e-03
9.797447611956e-03
9.752498636411e-03
9.709144494062e-03
9.627537184634e-03
9.551595144099e-03
9.479942657417e-03
9.344683791736e-03
9.216189521756e-03
9.172221887653e-03
9.152258202329e-03
9.132212477006e-03
9.112165163603e-03
9.092197296233e-03
9.072333604404e-03
9.033000146802e-03
8.994058037491e-03
8.916964274386e-03
8.840640245910e-03
8.689712120507e-03
8.540844139323e-03
8.249531313790e-03
7.967469436160e-03
7.432010816881e-03
6.951008264157e-03
6.869796502614e-03
6.710273489490e-03
6.571998492760e-03
6.435908012588e-03
6.302976253984e-03
6.172607753727e-03
6.044902139718e-03
5.919892836651e-03
5.678135314323e-03
5.448992685230e-03
5.025527502715e-03
4.642386325506e-03
3.962898997439e-03
3.393372949445e-03
2.497095438206e-03
1.860391944312e-03
1.050098539017e-03
6.298343188757e-04
3.954973871571e-04
1.716451174595e-04
8.539215239285e-05
4.722311994372e-05
1.103872800494e-05
4.213504105390e-06
-1.216733330915e-06
9.902110008306e-07
-9.759640381372e-07
9.704170610835e-07
-9.674333900943e-07
9.667867021560e-07
2.757859293089e-09
-1.066700757652e-09
4.363231106268e-10
4.785917555471e-10
5.663932095148e-10
9.028492491175e-10
8.606279331183e-10
9.536473909543e-10
2.588192367478e-09
5.398593541760e-09
1.513875565183e-08
2.077277850692e-08
6.575665573323e-08
7.862526999852e-08
1.118886942400e-07
1.903132938846e-07
2.340381212513e-07
4.234397796043e-07
2.058591777148e-06
1.011174340717e-05
2.315344371204e-05
3.287619776371e-05
3.346602544962e-05
2.608574715001e-05
1.263224224852e-05
1.128666123304e-05
8.918107074092e-06
4.912369803503e-06
4.357898086511e-06
3.816174826199e-06
2.809184056279e-06
1.879175773711e-06
1.817188607600e-07
-1.126840657675e-06
-2.235328505420e-06
-3.184502684024e-06
-4.672899357911e-06
-5.700319857976e-06
-6.371535307698e-06
-6.967879699287e-06
-6.880373035468e-06
-6.424312655380e-06
-5.849633631103e-06
-5.255579815241e-06
-5.161307513974e-06
-5.056620965526e-06
-4.830493043672e-06
-4.332936617502e-06
-4.082392882190e-06
-3.824652141693e-06
-3.683719782780e-06
-3.361555952491e-06
-2.684315968675e-06
-1.561899448463e-06
-8.794911208254e-07
-3.348111099708e-07
-2.137944963110e-07
-1.350842195858e-07
-8.389813196602e-08
-3.131269355184e-08
1.519513487884e-08
1.249106277224e-08
1.065949901417e-08
4.347873796618e-09
3.708910685920e-09
3.138148837918e-09
2.857628621593e-09
2.636388189401e-09
2.237826113485e-09
2.024313160690e-09
6.546747321973e-10
-1.359332352953e-09
-2.942466179963e-09
-5.966086711137e-09
-8.762396910794e-09
-1.147680295299e-08
-1.426029150958e-08
-1.712244731213e-08
-2.022535098031e-08
-2.725906746236e-08
-3.304377836991e-08
-8.470982484241e-08
-9.566031246892e-08
-1.084471036477e-07
-1.308771274250e-07
-1.391565190941e-07
-1.317047029125e-07
-8.906933149332e-08
-3.913776639688e-08
1.826595704524e-08
3.075737854780e-08
2.581562495783e-08
9.095174873950e-09
4.627786875697e-09
6.551624226662e-09
-1.174607696083e-09
5.002230047020e-09
-6.441876310195e-10
6.060701836473e-09
4.608391717467e-11
5.753377414641e-09
-1.505831310433e-09
3.601399677826e-09
-2.589478974515e-09
3.499020902804e-09
-2.555296587101e-09
3.518655194889e-09
-2.551632590508e-09
3.515190143553e-09
-2.549498518718e-09
3.513291143586e-09
-2.548948154840e-09
3.512272900457e-09
-2.548307440530e-09
3.509629947839e-09
</dep>
<dep tran.V(FILTERED1) TIME>
3.737452238570e-10
3.737452515397e-10
3.737401683980e-10
3.737327467383e-10
3.737576468115e-10
3.737344353600e-10
3.737546859276e-10
3.737375723786e-10
3.737681343163e-10
3.737396297383e-10
3.737729620908e-10
3.737468894550e-10
3.737628296313e-10
3.737407001020e-10
3.737658212641e-10
6.398893895132e-06
1.704765661022e-05
4.714026712912e-05
1.458978098224e-04
2.435680898857e-04
2.663671826869e-04
3.004488667023e-04
3.475857605678e-04
3.641065996413e-04
2.934116075443e-04
1.327666783763e-05
-5.814778006916e-04
-1.350805017820e-03
-2.989576485382e-03
-4.608898560341e-03
-7.298349375930e-03
-9.223957189892e-03
-1.047587436644e-02
-1.033525038185e-02
-9.803780259501e-03
-9.398493527166e-03
-8.967298633530e-03
-8.190739020326e-03
-6.763856618711e-03
-4.529223239559e-03
-1.703172138631e-03
5.158108992417e-04
9.231262237482e-04
8.810988857512e-04
6.853330845104e-04
5.135764043419e-04
3.928124334289e-04
2.813825515516e-04
1.516451022030e-04
1.019610119243e-05
-1.349762695847e-05
-2.679744086860e-05
-1.413064347695e-05
-1.671675758877e-05
-2.308945088002e-06
-7.611669160811e-06
4.709705165062e-06
-4.833979946469e-06
4.857074005657e-06
-4.863637682252e-06
4.867389858731e-06
-4.868009283125e-06
4.869792470990e-06
-4.870031417567e-06
4.871718736419e-06
-4.871866972456e-06
4.873468457081e-06
-4.885037707660e-06
-3.289150212728e-06
-3.078317507032e-06
-3.480984066232e-06
-7.561519762343e-06
-1.300722879721e-05
-1.450992060527e-05
-1.706853683211e-05
-2.133634299800e-05
-2.562811043864e-05
-2.639019562890e-05
-2.282366668193e-05
-1.540254947511e-05
2.737959769277e-06
6.315146597077e-05
1.465145925825e-04
2.658750200420e-04
3.034701484085e-04
5.357654574167e-04
1.228831186647e-03
2.072902090341e-03
2.888704617348e-03
1.481345502754e-03
-3.393236936522e-02
-9.772171648668e-02
-2.651909536612e-01
-6.648531692686e-01
-1.073220179101e+00
-1.478820664436e+00
-1.879929157838e+00
-2.633383208170e+00
-3.250206096994e+00
-3.283379478620e+00
-3.302514304071e+00
-3.321416600617e+00
-3.332141716156e+00
-3.342994439757e+00
-3.352542385160e+00
-3.354860754022e+00
-3.353844221840e+00
-3.348217201230e+00
-3.333333811061e+00
-3.314802475287e+00
-3.274891160281e+00
-3.269739131260e+00
-3.267909816595e+00
-3.261457227942e+00
-3.257783398777e+00
-3.255029462027e+00
-3.251628791037e+00
-3.244433533248e+00
-3.228779093709e+00
-3.212782588350e+00
-3.196669038482e+00
-3.164467782452e+00
-3.099964424367e+00
-2.972616592965e+00
-2.848585351316e+00
-2.730470881195e+00
-2.628235531199e+00
-2.524274265949e+00
-2.420167052146e+00
-2.219922116887e+00
-1.860731748906e+00
-1.557144846417e+00
-1.301936644706e+00
-1.088118172397e+00
-7.556657728633e-01
-3.576276366017e-01
-1.848924198074e-01
-9.563471267955e-02
-4.964571782911e-02
-2.580069709253e-02
-1.356276260189e-02
-7.154127311966e-03
-3.907787927887e-03
-2.158984697050e-03
-1.794733892223e-03
-2.238442975550e-03
-3.616250927683e-03
-6.840660124837e-03
-5.580482554128e-03
5.810206048054e-02
1.150019341437e-01
1.607248821577e-01
1.990190163412e-01
2.422106656457e-01
3.166475139143e-01
3.885727249584e-01
5.097304278071e-01
6.133987212523e-01
7.605347667827e-01
7.680209272180e-01
7.811725378975e-01
7.842491922887e-01
7.873086643968e-01
7.875977663134e-01
7.881746710772e-01
7.887491162378e-01
7.893214577539e-01
7.898917335960e-01
7.904599913802e-01
7.915905738209e-01
7.927132419645e-01
7.949349771717e-01
7.971253486820e-01
7.992846623050e-01
8.014132319857e-01
8.035114246749e-01
8.055795588475e-01
8.076179892998e-01
8.079272745402e-01
8.082362370097e-01
8.088521020415e-01
8.094652277076e-01
8.106833061449e-01
8.130870532810e-01
8.177671036341e-01
8.266343676621e-01
8.425211644095e-01
8.560983462335e-01
8.665101847593e-01
8.753903240024e-01
8.829019856397e-01
8.897056255586e-01
8.918235458591e-01
8.937437767835e-01
8.952777927470e-01
8.967463347694e-01
8.993048809523e-01
8.996945160938e-01
9.000778785970e-01
9.004433863451e-01
9.011307414142e-01
9.017690503234e-01
9.023604731792e-01
9.034135129337e-01
9.043017660953e-01
9.056312804264e-01
9.064169388788e-01
9.066342336252e-01
9.030472329062e-01
8.869103848520e-01
8.816276546522e-01
8.810622010069e-01
8.799271364292e-01
8.787767023241e-01
8.764157714780e-01
8.739688650387e-01
8.714392973630e-01
8.688406232021e-01
8.661872596822e-01
8.607788697183e-01
8.552977766258e-01
8.498101488680e-01
8.389871376219e-01
8.284902427667e-01
8.249197441412e-01
8.233124273066e-01
8.217096038424e-01
8.201156817922e-01
8.185309151722e-01
8.169559636633e-01
8.138377201621e-01
8.107627513336e-01
8.047439798612e-01
7.988979035894e-01
7.876966143880e-01
7.771033527729e-01
7.574842709196e-01
7.396683627760e-01
7.081938800973e-01
6.825574216305e-01
6.783722307239e-01
6.700941441359e-01
6.628036912062e-01
6.556432707425e-01
6.485768856038e-01
6.415670826585e-01
6.345759606668e-01
6.275713702512e-01
6.134413574110e-01
5.992131015767e-01
5.713117995169e-01
5.450683292161e-01
4.974322798894e-01
4.554589233865e-01
3.845322680910e-01
3.272413534537e-01
2.396940948241e-01
1.775658194940e-01
1.321311338664e-01
7.247680238612e-02
3.986756516325e-02
2.193444593896e-02
5.832880430545e-03
1.551609899144e-03
-1.133513771658e-04
7.042310347480e-06
